


                                __________________________________________
                               |                                          |
                               | NUMERICAL ELECTROMAGNETICS CODE (nec2++) |
                               | Translated to 'C++' in Double Precision  |
                               |              Version 1.0.4 [2004-11-23]              |
                               |__________________________________________|



                               ---------------- COMMENTS ----------------
                                Simpole dipole antenna in free space
                                



                                -------- STRUCTURE SPECIFICATION --------
                                COORDINATES MUST BE INPUT IN
                                METERS OR BE SCALED TO METERS
                                BEFORE STRUCTURE INPUT IS ENDED
  WIRE                                                                                 SEG FIRST  LAST  TAG
   No:        X1         Y1         Z1         X2         Y2         Z2       RADIUS   No:   SEG   SEG  No:

     1      0.0000    -0.2418     0.0000     0.0000     0.2418     0.0000     0.0001     9     1     9    1
     STRUCTURE SCALED BY FACTOR:    1.00000

     TOTAL SEGMENTS USED: 9   SEGMENTS IN A SYMMETRIC CELL: 9   SYMMETRY FLAG: 0


                               ---------- SEGMENTATION DATA ----------
                                        COORDINATES IN METERS
                            I+ AND I- INDICATE THE SEGMENTS BEFORE AND AFTER I

   SEG    COORDINATES OF SEGM CENTER     SEGM    ORIENTATION ANGLES    WIRE    CONNECTION DATA   TAG
   No:       X         Y         Z      LENGTH     ALPHA      BETA    RADIUS    I-     I    I+   NO:
     1    0.0000   -0.2149    0.0000    0.0537    0.0000   90.0000    0.0001     0     1     2     1
     2    0.0000   -0.1612    0.0000    0.0537    0.0000   90.0000    0.0001     1     2     3     1
     3    0.0000   -0.1075    0.0000    0.0537    0.0000   90.0000    0.0001     2     3     4     1
     4    0.0000   -0.0537    0.0000    0.0537    0.0000   90.0000    0.0001     3     4     5     1
     5    0.0000   -0.0000    0.0000    0.0537    0.0000   90.0000    0.0001     4     5     6     1
     6    0.0000    0.0537    0.0000    0.0537    0.0000   90.0000    0.0001     5     6     7     1
     7    0.0000    0.1075    0.0000    0.0537    0.0000   90.0000    0.0001     6     7     8     1
     8    0.0000    0.1612    0.0000    0.0537    0.0000   90.0000    0.0001     7     8     9     1
     9    0.0000    0.2149    0.0000    0.0537    0.0000   90.0000    0.0001     8     9     0     1



*****  DATA CARD N0.   1 EX   0     1     5     0  1.00000E+00  0.00000E+00  0.00000E+00  0.00000E+00  0.00000E+00  0.00000E+00
*****  DATA CARD N0.   2 FR   0     1     0     0  3.00000E+02  1.00000E+00  0.00000E+00  0.00000E+00  0.00000E+00  0.00000E+00
*****  DATA CARD N0.   3 XQ   0     0     0     0  0.00000E+00  0.00000E+00  0.00000E+00  0.00000E+00  0.00000E+00  0.00000E+00


                               --------- FREQUENCY --------
                               FREQUENCY=  3.0000E+02 MHZ
                               WAVELENGTH= 9.9933E-01 METERS


                        APPROXIMATE INTEGRATION EMPLOYED FOR SEGMENTS
                        THAT ARE MORE THAN 1.000 WAVELENGTHS APART



                          ------ STRUCTURE IMPEDANCE LOADING ------
                                 THIS STRUCTURE IS NOT LOADED



                            -------- ANTENNA ENVIRONMENT --------

                            FREE SPACE


                             ---------- MATRIX TIMING ----------
                               FILL= 0 msec  FACTOR: 0 msec


                        --------- ANTENNA INPUT PARAMETERS ---------
  TAG   SEG       VOLTAGE (VOLTS)         CURRENT (AMPS)         IMPEDANCE (OHMS)        ADMITTANCE (MHOS)     POWER
  NO.   NO.     REAL      IMAGINARY     REAL      IMAGINARY     REAL      IMAGINARY    REAL       IMAGINARY   (WATTS)
    1     5  1.0000E+00  0.0000E+00  1.3874E-02  3.3389E-07  7.2079E+01 -1.7347E-03  1.3874E-02  3.3389E-07  6.9369E-03


                           -------- CURRENTS AND LOCATION --------
                                  DISTANCES IN WAVELENGTHS

   SEG  TAG    COORDINATES OF SEGM CENTER     SEGM    ------------- CURRENT (AMPS) -------------
   No:  No:       X         Y         Z      LENGTH     REAL      IMAGINARY    MAGN        PHASE
     1    1    0.0000   -0.2151    0.0000   0.05377  2.7101E-03 -1.8628E-04  2.7165E-03   -3.932
     2    1    0.0000   -0.1613    0.0000   0.05377  7.2873E-03 -4.0654E-04  7.2987E-03   -3.193
     3    1    0.0000   -0.1075    0.0000   0.05377  1.0826E-02 -4.3652E-04  1.0835E-02   -2.309
     4    1    0.0000   -0.0538    0.0000   0.05377  1.3093E-02 -2.6614E-04  1.3095E-02   -1.165
     5    1    0.0000   -0.0000    0.0000   0.05377  1.3874E-02  3.3389E-07  1.3874E-02    0.001
     6    1    0.0000    0.0538    0.0000   0.05377  1.3093E-02 -2.6614E-04  1.3095E-02   -1.165
     7    1    0.0000    0.1075    0.0000   0.05377  1.0826E-02 -4.3652E-04  1.0835E-02   -2.309
     8    1    0.0000    0.1613    0.0000   0.05377  7.2873E-03 -4.0654E-04  7.2987E-03   -3.193
     9    1    0.0000    0.2151    0.0000   0.05377  2.7101E-03 -1.8628E-04  2.7165E-03   -3.932


                               ---------- POWER BUDGET ---------
                               INPUT POWER   =  6.9369E-03 Watts
                               RADIATED POWER=  6.9369E-03 Watts
                               STRUCTURE LOSS=  0.0000E+00 Watts
                               NETWORK LOSS  =  0.0000E+00 Watts
                               EFFICIENCY    =  100.00 Percent



*****  DATA CARD N0.   4 EN   0     0     0     0  0.00000E+00  0.00000E+00  0.00000E+00  0.00000E+00  0.00000E+00  0.00000E+00

  TOTAL RUN TIME: 10 msec