


                                __________________________________________
                               |                                          |
                               | NUMERICAL ELECTROMAGNETICS CODE (nec2++) |
                               | Translated to 'C++' in Double Precision  |
                               |              Version 1.0.4 [2004-11-23]              |
                               |__________________________________________|



                               ---------------- COMMENTS ----------------
                                Simpole dipole antenna in free space
                                



                                -------- STRUCTURE SPECIFICATION --------
                                COORDINATES MUST BE INPUT IN
                                METERS OR BE SCALED TO METERS
                                BEFORE STRUCTURE INPUT IS ENDED
  WIRE                                                                                 SEG FIRST  LAST  TAG
   No:        X1         Y1         Z1         X2         Y2         Z2       RADIUS   No:   SEG   SEG  No:

     1      0.0000    -0.2225     0.0000     0.0000     0.2225     0.0000     0.0037    21     1    21    1
     STRUCTURE SCALED BY FACTOR:    1.00000

     TOTAL SEGMENTS USED: 21   SEGMENTS IN A SYMMETRIC CELL: 21   SYMMETRY FLAG: 0


                               ---------- SEGMENTATION DATA ----------
                                        COORDINATES IN METERS
                            I+ AND I- INDICATE THE SEGMENTS BEFORE AND AFTER I

   SEG    COORDINATES OF SEGM CENTER     SEGM    ORIENTATION ANGLES    WIRE    CONNECTION DATA   TAG
   No:       X         Y         Z      LENGTH     ALPHA      BETA    RADIUS    I-     I    I+   NO:
     1    0.0000   -0.2119    0.0000    0.0212    0.0000   90.0000    0.0037     0     1     2     1
     2    0.0000   -0.1907    0.0000    0.0212    0.0000   90.0000    0.0037     1     2     3     1
     3    0.0000   -0.1695    0.0000    0.0212    0.0000   90.0000    0.0037     2     3     4     1
     4    0.0000   -0.1483    0.0000    0.0212    0.0000   90.0000    0.0037     3     4     5     1
     5    0.0000   -0.1271    0.0000    0.0212    0.0000   90.0000    0.0037     4     5     6     1
     6    0.0000   -0.1059    0.0000    0.0212    0.0000   90.0000    0.0037     5     6     7     1
     7    0.0000   -0.0847    0.0000    0.0212    0.0000   90.0000    0.0037     6     7     8     1
     8    0.0000   -0.0636    0.0000    0.0212    0.0000   90.0000    0.0037     7     8     9     1
     9    0.0000   -0.0424    0.0000    0.0212    0.0000   90.0000    0.0037     8     9    10     1
    10    0.0000   -0.0212    0.0000    0.0212    0.0000   90.0000    0.0037     9    10    11     1
    11    0.0000    0.0000    0.0000    0.0212    0.0000   90.0000    0.0037    10    11    12     1
    12    0.0000    0.0212    0.0000    0.0212    0.0000   90.0000    0.0037    11    12    13     1
    13    0.0000    0.0424    0.0000    0.0212    0.0000   90.0000    0.0037    12    13    14     1
    14    0.0000    0.0636    0.0000    0.0212    0.0000   90.0000    0.0037    13    14    15     1
    15    0.0000    0.0847    0.0000    0.0212    0.0000   90.0000    0.0037    14    15    16     1
    16    0.0000    0.1059    0.0000    0.0212    0.0000   90.0000    0.0037    15    16    17     1
    17    0.0000    0.1271    0.0000    0.0212    0.0000   90.0000    0.0037    16    17    18     1
    18    0.0000    0.1483    0.0000    0.0212    0.0000   90.0000    0.0037    17    18    19     1
    19    0.0000    0.1695    0.0000    0.0212    0.0000   90.0000    0.0037    18    19    20     1
    20    0.0000    0.1907    0.0000    0.0212    0.0000   90.0000    0.0037    19    20    21     1
    21    0.0000    0.2119    0.0000    0.0212    0.0000   90.0000    0.0037    20    21     0     1



*****  DATA CARD N0.   1 EX   0     1    10     0  1.00000E+00  0.00000E+00  0.00000E+00  0.00000E+00  0.00000E+00  0.00000E+00
*****  DATA CARD N0.   2 FR   0    13     0     0  2.10000E+02  1.50000E+01  0.00000E+00  0.00000E+00  0.00000E+00  0.00000E+00
*****  DATA CARD N0.   3 XQ   0     0     0     0  0.00000E+00  0.00000E+00  0.00000E+00  0.00000E+00  0.00000E+00  0.00000E+00


                               --------- FREQUENCY --------
                               FREQUENCY=  2.1000E+02 MHZ
                               WAVELENGTH= 1.4276E+00 METERS


                        APPROXIMATE INTEGRATION EMPLOYED FOR SEGMENTS
                        THAT ARE MORE THAN 1.000 WAVELENGTHS APART



                          ------ STRUCTURE IMPEDANCE LOADING ------
                                 THIS STRUCTURE IS NOT LOADED



                            -------- ANTENNA ENVIRONMENT --------

                            FREE SPACE


                             ---------- MATRIX TIMING ----------
                               FILL= 10 msec  FACTOR: 0 msec


                        --------- ANTENNA INPUT PARAMETERS ---------
  TAG   SEG       VOLTAGE (VOLTS)         CURRENT (AMPS)         IMPEDANCE (OHMS)        ADMITTANCE (MHOS)     POWER
  NO.   NO.     REAL      IMAGINARY     REAL      IMAGINARY     REAL      IMAGINARY    REAL       IMAGINARY   (WATTS)
    1    10  1.0000E+00  0.0000E+00  4.3837E-04  4.3274E-03  2.3171E+01 -2.2874E+02  4.3837E-04  4.3274E-03  2.1918E-04


                           -------- CURRENTS AND LOCATION --------
                                  DISTANCES IN WAVELENGTHS

   SEG  TAG    COORDINATES OF SEGM CENTER     SEGM    ------------- CURRENT (AMPS) -------------
   No:  No:       X         Y         Z      LENGTH     REAL      IMAGINARY    MAGN        PHASE
     1    1    0.0000   -0.1484    0.0000   0.01484  7.0629E-05  4.6945E-04  4.7474E-04   81.444
     2    1    0.0000   -0.1336    0.0000   0.01484  1.4842E-04  1.0147E-03  1.0255E-03   81.679
     3    1    0.0000   -0.1187    0.0000   0.01484  2.1096E-04  1.4864E-03  1.5013E-03   81.922
     4    1    0.0000   -0.1039    0.0000   0.01484  2.6522E-04  1.9292E-03  1.9474E-03   82.172
     5    1    0.0000   -0.0890    0.0000   0.01484  3.1197E-04  2.3487E-03  2.3693E-03   82.434
     6    1    0.0000   -0.0742    0.0000   0.01484  3.5154E-04  2.7482E-03  2.7706E-03   82.710
     7    1    0.0000   -0.0594    0.0000   0.01484  3.8401E-04  3.1313E-03  3.1547E-03   83.008
     8    1    0.0000   -0.0445    0.0000   0.01484  4.0934E-04  3.5042E-03  3.5280E-03   83.337
     9    1    0.0000   -0.0297    0.0000   0.01484  4.2747E-04  3.9012E-03  3.9246E-03   83.747
    10    1    0.0000   -0.0148    0.0000   0.01484  4.3837E-04  4.3274E-03  4.3495E-03   84.216
    11    1    0.0000    0.0000    0.0000   0.01484  4.4198E-04  3.9899E-03  4.0143E-03   83.679
    12    1    0.0000    0.0148    0.0000   0.01484  4.3830E-04  3.6814E-03  3.7074E-03   83.210
    13    1    0.0000    0.0297    0.0000   0.01484  4.2734E-04  3.3965E-03  3.4233E-03   82.829
    14    1    0.0000    0.0445    0.0000   0.01484  4.0914E-04  3.1011E-03  3.1280E-03   82.484
    15    1    0.0000    0.0594    0.0000   0.01484  3.8376E-04  2.7891E-03  2.8154E-03   82.166
    16    1    0.0000    0.0742    0.0000   0.01484  3.5126E-04  2.4580E-03  2.4830E-03   81.867
    17    1    0.0000    0.0890    0.0000   0.01484  3.1167E-04  2.1066E-03  2.1296E-03   81.584
    18    1    0.0000    0.1039    0.0000   0.01484  2.6491E-04  1.7340E-03  1.7541E-03   81.314
    19    1    0.0000    0.1187    0.0000   0.01484  2.1068E-04  1.3381E-03  1.3546E-03   81.052
    20    1    0.0000    0.1336    0.0000   0.01484  1.4820E-04  9.1466E-04  9.2659E-04   80.797
    21    1    0.0000    0.1484    0.0000   0.01484  7.0511E-05  4.2359E-04  4.2942E-04   80.549


                               ---------- POWER BUDGET ---------
                               INPUT POWER   =  2.1918E-04 Watts
                               RADIATED POWER=  2.1918E-04 Watts
                               STRUCTURE LOSS=  0.0000E+00 Watts
                               NETWORK LOSS  =  0.0000E+00 Watts
                               EFFICIENCY    =  100.00 Percent


                               --------- FREQUENCY --------
                               FREQUENCY=  2.2500E+02 MHZ
                               WAVELENGTH= 1.3324E+00 METERS


                        APPROXIMATE INTEGRATION EMPLOYED FOR SEGMENTS
                        THAT ARE MORE THAN 1.000 WAVELENGTHS APART



                          ------ STRUCTURE IMPEDANCE LOADING ------
                                 THIS STRUCTURE IS NOT LOADED



                            -------- ANTENNA ENVIRONMENT --------

                            FREE SPACE


                             ---------- MATRIX TIMING ----------
                               FILL= 10 msec  FACTOR: 0 msec


                        --------- ANTENNA INPUT PARAMETERS ---------
  TAG   SEG       VOLTAGE (VOLTS)         CURRENT (AMPS)         IMPEDANCE (OHMS)        ADMITTANCE (MHOS)     POWER
  NO.   NO.     REAL      IMAGINARY     REAL      IMAGINARY     REAL      IMAGINARY    REAL       IMAGINARY   (WATTS)
    1    10  1.0000E+00  0.0000E+00  7.5243E-04  5.1528E-03  2.7747E+01 -1.9002E+02  7.5243E-04  5.1528E-03  3.7621E-04


                           -------- CURRENTS AND LOCATION --------
                                  DISTANCES IN WAVELENGTHS

   SEG  TAG    COORDINATES OF SEGM CENTER     SEGM    ------------- CURRENT (AMPS) -------------
   No:  No:       X         Y         Z      LENGTH     REAL      IMAGINARY    MAGN        PHASE
     1    1    0.0000   -0.1590    0.0000   0.01590  1.1960E-04  5.7699E-04  5.8925E-04   78.290
     2    1    0.0000   -0.1431    0.0000   0.01590  2.5199E-04  1.2463E-03  1.2715E-03   78.569
     3    1    0.0000   -0.1272    0.0000   0.01590  3.5904E-04  1.8234E-03  1.8584E-03   78.861
     4    1    0.0000   -0.1113    0.0000   0.01590  4.5231E-04  2.3624E-03  2.4053E-03   79.161
     5    1    0.0000   -0.0954    0.0000   0.01590  5.3298E-04  2.8693E-03  2.9184E-03   79.477
     6    1    0.0000   -0.0795    0.0000   0.01590  6.0148E-04  3.3474E-03  3.4010E-03   79.813
     7    1    0.0000   -0.0636    0.0000   0.01590  6.5781E-04  3.7998E-03  3.8563E-03   80.178
     8    1    0.0000   -0.0477    0.0000   0.01590  7.0185E-04  4.2326E-03  4.2904E-03   80.585
     9    1    0.0000   -0.0318    0.0000   0.01590  7.3344E-04  4.6820E-03  4.7391E-03   81.097
    10    1    0.0000   -0.0159    0.0000   0.01590  7.5243E-04  5.1528E-03  5.2074E-03   81.692
    11    1    0.0000    0.0000    0.0000   0.01590  7.5873E-04  4.7950E-03  4.8546E-03   81.008
    12    1    0.0000    0.0159    0.0000   0.01590  7.5232E-04  4.4582E-03  4.5212E-03   80.422
    13    1    0.0000    0.0318    0.0000   0.01590  7.3322E-04  4.1370E-03  4.2015E-03   79.950
    14    1    0.0000    0.0477    0.0000   0.01590  7.0154E-04  3.7953E-03  3.8596E-03   79.527
    15    1    0.0000    0.0636    0.0000   0.01590  6.5742E-04  3.4270E-03  3.4895E-03   79.141
    16    1    0.0000    0.0795    0.0000   0.01590  6.0103E-04  3.0301E-03  3.0892E-03   78.781
    17    1    0.0000    0.0954    0.0000   0.01590  5.3251E-04  2.6039E-03  2.6578E-03   78.442
    18    1    0.0000    0.1113    0.0000   0.01590  4.5184E-04  2.1478E-03  2.1948E-03   78.120
    19    1    0.0000    0.1272    0.0000   0.01590  3.5861E-04  1.6601E-03  1.6983E-03   77.810
    20    1    0.0000    0.1431    0.0000   0.01590  2.5165E-04  1.1359E-03  1.1634E-03   77.508
    21    1    0.0000    0.1590    0.0000   0.01590  1.1941E-04  5.2633E-04  5.3971E-04   77.217


                               ---------- POWER BUDGET ---------
                               INPUT POWER   =  3.7621E-04 Watts
                               RADIATED POWER=  3.7621E-04 Watts
                               STRUCTURE LOSS=  0.0000E+00 Watts
                               NETWORK LOSS  =  0.0000E+00 Watts
                               EFFICIENCY    =  100.00 Percent


                               --------- FREQUENCY --------
                               FREQUENCY=  2.4000E+02 MHZ
                               WAVELENGTH= 1.2492E+00 METERS


                        APPROXIMATE INTEGRATION EMPLOYED FOR SEGMENTS
                        THAT ARE MORE THAN 1.000 WAVELENGTHS APART



                          ------ STRUCTURE IMPEDANCE LOADING ------
                                 THIS STRUCTURE IS NOT LOADED



                            -------- ANTENNA ENVIRONMENT --------

                            FREE SPACE


                             ---------- MATRIX TIMING ----------
                               FILL= 10 msec  FACTOR: 0 msec


                        --------- ANTENNA INPUT PARAMETERS ---------
  TAG   SEG       VOLTAGE (VOLTS)         CURRENT (AMPS)         IMPEDANCE (OHMS)        ADMITTANCE (MHOS)     POWER
  NO.   NO.     REAL      IMAGINARY     REAL      IMAGINARY     REAL      IMAGINARY    REAL       IMAGINARY   (WATTS)
    1    10  1.0000E+00  0.0000E+00  1.3348E-03  6.2128E-03  3.3055E+01 -1.5386E+02  1.3348E-03  6.2128E-03  6.6739E-04


                           -------- CURRENTS AND LOCATION --------
                                  DISTANCES IN WAVELENGTHS

   SEG  TAG    COORDINATES OF SEGM CENTER     SEGM    ------------- CURRENT (AMPS) -------------
   No:  No:       X         Y         Z      LENGTH     REAL      IMAGINARY    MAGN        PHASE
     1    1    0.0000   -0.1696    0.0000   0.01696  2.0910E-04  7.1744E-04  7.4729E-04   73.751
     2    1    0.0000   -0.1526    0.0000   0.01696  4.4186E-04  1.5490E-03  1.6108E-03   74.079
     3    1    0.0000   -0.1357    0.0000   0.01696  6.3118E-04  2.2640E-03  2.3504E-03   74.422
     4    1    0.0000   -0.1187    0.0000   0.01696  7.9690E-04  2.9287E-03  3.0352E-03   74.778
     5    1    0.0000   -0.1018    0.0000   0.01696  9.4080E-04  3.5493E-03  3.6719E-03   75.154
     6    1    0.0000   -0.0848    0.0000   0.01696  1.0634E-03  4.1289E-03  4.2636E-03   75.558
     7    1    0.0000   -0.0678    0.0000   0.01696  1.1645E-03  4.6700E-03  4.8130E-03   75.999
     8    1    0.0000   -0.0509    0.0000   0.01696  1.2437E-03  5.1781E-03  5.3253E-03   76.495
     9    1    0.0000   -0.0339    0.0000   0.01696  1.3005E-03  5.6909E-03  5.8376E-03   77.127
    10    1    0.0000   -0.0170    0.0000   0.01696  1.3348E-03  6.2128E-03  6.3546E-03   77.875
    11    1    0.0000    0.0000    0.0000   0.01696  1.3462E-03  5.8368E-03  5.9900E-03   77.013
    12    1    0.0000    0.0170    0.0000   0.01696  1.3346E-03  5.4690E-03  5.6295E-03   76.286
    13    1    0.0000    0.0339    0.0000   0.01696  1.3002E-03  5.1045E-03  5.2675E-03   75.710
    14    1    0.0000    0.0509    0.0000   0.01696  1.2432E-03  4.7050E-03  4.8665E-03   75.199
    15    1    0.0000    0.0678    0.0000   0.01696  1.1639E-03  4.2650E-03  4.4210E-03   74.736
    16    1    0.0000    0.0848    0.0000   0.01696  1.0627E-03  3.7830E-03  3.9294E-03   74.309
    17    1    0.0000    0.1018    0.0000   0.01696  9.4008E-04  3.2589E-03  3.3918E-03   73.909
    18    1    0.0000    0.1187    0.0000   0.01696  7.9618E-04  2.6932E-03  2.8085E-03   73.531
    19    1    0.0000    0.1357    0.0000   0.01696  6.3053E-04  2.0844E-03  2.1777E-03   73.170
    20    1    0.0000    0.1526    0.0000   0.01696  4.4134E-04  1.4274E-03  1.4941E-03   72.819
    21    1    0.0000    0.1696    0.0000   0.01696  2.0883E-04  6.6159E-04  6.9376E-04   72.482


                               ---------- POWER BUDGET ---------
                               INPUT POWER   =  6.6739E-04 Watts
                               RADIATED POWER=  6.6739E-04 Watts
                               STRUCTURE LOSS=  0.0000E+00 Watts
                               NETWORK LOSS  =  0.0000E+00 Watts
                               EFFICIENCY    =  100.00 Percent


                               --------- FREQUENCY --------
                               FREQUENCY=  2.5500E+02 MHZ
                               WAVELENGTH= 1.1757E+00 METERS


                        APPROXIMATE INTEGRATION EMPLOYED FOR SEGMENTS
                        THAT ARE MORE THAN 1.000 WAVELENGTHS APART



                          ------ STRUCTURE IMPEDANCE LOADING ------
                                 THIS STRUCTURE IS NOT LOADED



                            -------- ANTENNA ENVIRONMENT --------

                            FREE SPACE


                             ---------- MATRIX TIMING ----------
                               FILL= 10 msec  FACTOR: 0 msec


                        --------- ANTENNA INPUT PARAMETERS ---------
  TAG   SEG       VOLTAGE (VOLTS)         CURRENT (AMPS)         IMPEDANCE (OHMS)        ADMITTANCE (MHOS)     POWER
  NO.   NO.     REAL      IMAGINARY     REAL      IMAGINARY     REAL      IMAGINARY    REAL       IMAGINARY   (WATTS)
    1    10  1.0000E+00  0.0000E+00  2.4749E-03  7.5480E-03  3.9224E+01 -1.1963E+02  2.4749E-03  7.5480E-03  1.2374E-03


                           -------- CURRENTS AND LOCATION --------
                                  DISTANCES IN WAVELENGTHS

   SEG  TAG    COORDINATES OF SEGM CENTER     SEGM    ------------- CURRENT (AMPS) -------------
   No:  No:       X         Y         Z      LENGTH     REAL      IMAGINARY    MAGN        PHASE
     1    1    0.0000   -0.1802    0.0000   0.01802  3.8178E-04  8.9515E-04  9.7316E-04   66.902
     2    1    0.0000   -0.1622    0.0000   0.01802  8.0922E-04  1.9328E-03  2.0954E-03   67.282
     3    1    0.0000   -0.1442    0.0000   0.01802  1.1591E-03  2.8236E-03  3.0522E-03   67.681
     4    1    0.0000   -0.1261    0.0000   0.01802  1.4669E-03  3.6485E-03  3.9323E-03   68.098
     5    1    0.0000   -0.1081    0.0000   0.01802  1.7352E-03  4.4140E-03  4.7429E-03   68.540
     6    1    0.0000   -0.0901    0.0000   0.01802  1.9646E-03  5.1225E-03  5.4863E-03   69.017
     7    1    0.0000   -0.0721    0.0000   0.01802  2.1542E-03  5.7753E-03  6.1640E-03   69.544
     8    1    0.0000   -0.0541    0.0000   0.01802  2.3031E-03  6.3771E-03  6.7803E-03   70.143
     9    1    0.0000   -0.0360    0.0000   0.01802  2.4103E-03  6.9668E-03  7.3720E-03   70.916
    10    1    0.0000   -0.0180    0.0000   0.01802  2.4749E-03  7.5480E-03  7.9434E-03   71.846
    11    1    0.0000    0.0000    0.0000   0.01802  2.4964E-03  7.1561E-03  7.5790E-03   70.769
    12    1    0.0000    0.0180    0.0000   0.01802  2.4746E-03  6.7543E-03  7.1934E-03   69.878
    13    1    0.0000    0.0360    0.0000   0.01802  2.4098E-03  6.3378E-03  6.7805E-03   69.182
    14    1    0.0000    0.0541    0.0000   0.01802  2.3024E-03  5.8669E-03  6.3025E-03   68.573
    15    1    0.0000    0.0721    0.0000   0.01802  2.1533E-03  5.3365E-03  5.7545E-03   68.025
    16    1    0.0000    0.0901    0.0000   0.01802  1.9635E-03  4.7460E-03  5.1362E-03   67.524
    17    1    0.0000    0.1081    0.0000   0.01802  1.7341E-03  4.0969E-03  4.4488E-03   67.058
    18    1    0.0000    0.1261    0.0000   0.01802  1.4658E-03  3.3906E-03  3.6939E-03   66.621
    19    1    0.0000    0.1442    0.0000   0.01802  1.1581E-03  2.6264E-03  2.8704E-03   66.204
    20    1    0.0000    0.1622    0.0000   0.01802  8.0845E-04  1.7991E-03  1.9724E-03   65.802
    21    1    0.0000    0.1802    0.0000   0.01802  3.8137E-04  8.3364E-04  9.1673E-04   65.417


                               ---------- POWER BUDGET ---------
                               INPUT POWER   =  1.2374E-03 Watts
                               RADIATED POWER=  1.2374E-03 Watts
                               STRUCTURE LOSS=  0.0000E+00 Watts
                               NETWORK LOSS  =  0.0000E+00 Watts
                               EFFICIENCY    =  100.00 Percent


                               --------- FREQUENCY --------
                               FREQUENCY=  2.7000E+02 MHZ
                               WAVELENGTH= 1.1104E+00 METERS


